! Touchstone file exported from HFSS 2021.2.0
!        File:           C:/Users/pmena/AData/NRAO/Modelling/HFSS/Artificial/Artificial.aedt
!        Generated:      9:21:13 AM  Mar 22, 2023
!        Design:         03_Artificial_UnitCell-Xs0
!        Project:        Artificial
!        Setup:          Setup1
!        Solution:       Sweep
!
! Variables:
!        $Tc = 14.7
!        $l0NTN = 314.642654451045nm
!        $l0nm = 314.642654451045
!        $rn = 132
!        L1 = 440um
!        L2 = 884um
!        L3 = 804um
!        L4 = 372um
!        N1 = 110
!        N2 = 221
!        N3 = 201
!        N4 = 93
!        Wl = 35um
!        Wu = 19um
!        Zp = 50ohm
!        g = 1um
!        ha = 140um
!        hd = 140um
!        hp = 70um
!        lH = 1um
!        lL = 1um
!        la = 3140um
!        ld = 3140um
!        lext = 0
!        ll1 = 160um
!        ll2 = 160um
!        ll3 = 320um
!        ls = 3140um
!        lu = 4um
!        nn1 = 40
!        nn2 = 40
!        nn3 = 80
!        nu = 30
!        ts = 60nm
!        wH = 1um
!        wa = 280um
!        wd = 280um
!        wp = 140um
!
# GHz S MA R 50.000000
! Terminal data exported
! Port[1] = 1
! Port[2] = 2
0.5                            0.0725519292731489 -31.4117153990098 0.997362599292786 -18.6159109263668 0.997362599292787 -18.6159109263668 0.0725500516562003 174.180307534165 
1                              0.0641740362289322 -65.8211558966939 0.997930434091148 -37.2522421148787 0.997930434091157 -37.2522421148792 0.064167619507838 171.320360865108 
1.5                            0.0544117082395809 -107.271145392521 0.998499699589931 -55.9199484966756 0.998499699589933 -55.9199484966757 0.0544036063024013 175.44553642451  
2                              0.0506404105935423 -157.912641774985 0.998682814534396 -74.61490338717  0.998682814534395 -74.61490338717  0.0506417627228927 -171.288433260353 
2.5                            0.0587322558451561 151.580605351891 0.9982197878005  -93.319109953715 0.998219787800499 -93.319109953715 0.058752607940929 -158.191535947237 
3                              0.0749174857141811 110.514761227016 0.997111647692356 -112.00825582161 0.997111647692356 -112.00825582161 0.0749526950573718 -154.514790274714 
3.5                            0.0921784412464593 76.8474993267249 0.995636616672693 -130.662628512591 0.995636616672693 -130.662628512592 0.0922198782933805 -158.164302357418 
4                              0.105854252477489 46.8375595146384 0.994244857095957 -149.276361262899 0.994244857095958 -149.276361262899 0.10589366067295 -165.385702284732 
4.5                            0.113464275088618 18.1245223838257 0.993371590680107 -167.861036450296 0.993371590680107 -167.861036450296 0.113494725070758 -173.842052372844 
5                              0.114177004021928 -10.9119578012517 0.993253398076175 173.558027322913 0.993253398076175 173.558027322913 0.114194267971362 178.03685625055  
5.5                            0.108768770507135 -41.7740555180606 0.993820211736499 154.951316185376 0.993820211736501 154.951316185376 0.10877385301734 171.695703994351 
6                              0.0998982067626988 -76.1272180810223 0.994707030026718 136.29681405464  0.994707030026719 136.29681405464  0.0999011504740416 168.757521189545 
6.5                            0.0923417090220186 -115.293499923476 0.995388591870599 117.589194127013 0.995388591870599 117.589194127013 0.0923643889805476 170.530313526791 
7                              0.0917175092659161 -158.133464596693 0.995393802087753 98.8423463185286 0.995393802087753 98.8423463185286 0.0917851964756773 175.887094913236 
7.5                            0.100269837775529 159.82417637025  0.994512945931612 80.0833396325243 0.994512945931613 80.0833396325244 0.1003897572313  -179.598995101436 
8                              0.114679970295863 121.79611761552  0.992896761580841 61.3396213119098 0.992896761580842 61.3396213119099 0.114838989464203 -179.076580296184 
8.5                            0.129719617081482 87.3637723495539 0.990985681352011 42.6247689420421 0.990985681352012 42.6247689420422 0.129899790372529 177.911796116929 
9                              0.141696047136522 54.6693324073726 0.989286037911257 23.9293035945474 0.989286037911252 23.9293035945474 0.141882866849405 173.206934148415 
9.5                            0.149497137598805 21.8658514771024 0.988079375349985 5.22121608943085 0.988079375349977 5.22121608943102 0.149681884357047 168.590459506203 
10                             0.154976069049968 -12.5136531913479 0.987176786397762 -13.5427476039436 0.987176786397758 -13.5427476039435 0.155157058913989 165.441122191733 
10.5                           0.163023468060527 -49.0301192156518 0.985820651023857 -32.3976472599918 0.985820651023861 -32.3976472599923 0.163206158381573 164.247940925464 
11                             0.179950401656379 -86.4983296372629 0.982810929272883 -51.348553203117 0.982810929272887 -51.3485532031178 0.180144370545779 163.814184962764 
11.5                           0.20949617113229 -122.385012728755 0.976876976470302 -70.3547367849499 0.976876976470302 -70.3547367849497 0.209708386752393 161.688241279504 
12                             0.250130911699648 -154.861916723631 0.967206697378288 -89.328699934025 0.967206697378296 -89.3286999340232 0.250360818390124 156.2181719871   
12.5                           0.2966337608074  176.318729237754 0.953908751627769 -108.154481353891 0.95390875162778 -108.15448135389 0.296873544578759 147.388893736263 
13                             0.34304738727738 150.597872866739 0.938155647750126 -126.720221203344 0.938155647750092 -126.720221203347 0.343284857162733 135.983157931164 
13.5                           0.384400648279598 127.315030013196 0.921923225489625 -144.951578522629 0.921923225489504 -144.951578522636 0.384621855543532 122.809760632794 
14                             0.417211091378152 105.920523596358 0.907486880524749 -162.832765834392 0.907486880524776 -162.832765834391 0.417400900504341 108.449726642633 
14.5                           0.439323972514295 85.9759062603572 0.896932071081021 179.589527091343 0.896932071081924 179.58952709136  0.439466310009075 93.2490011519564 
15                             0.449484391633582 67.1180035737125 0.891824667600473 162.215449619712 0.891824667602061 162.215449619713 0.449570606577109 77.3717177981097 
15.5                           0.443862818686008 48.8527721286688 0.897169022272488 144.806853517775 0.897169022272488 144.806853517776 0.444014736899606 61.7588367881083 
16                             0.425841065813853 31.4046957960666 0.90641625572168 127.218001569789 0.906416255721679 127.218001569789 0.429964436901832 45.0718009444032 
16.5                           0.397697077567988 14.2903577388583 0.916726924418314 109.636258442104 0.916726924418315 109.636258442104 0.401677476174393 26.5221458610563 
17                             0.35601976454182 -2.85506898273884 0.93266736950282 91.8630946088314 0.932667369502819 91.8630946088314 0.356519542914043 6.94042052660001 
17.5                           0.299125436272564 -20.0249978155823 0.953278097722431 73.5700710261352 0.953278097722427 73.5700710261351 0.296864716087528 -13.4253053511835 
18                             0.228131676896696 -36.7348834852083 0.973201407723087 54.6696438474602 0.973201407723082 54.6696438474601 0.225740448887107 -34.7707975765373 
18.5                           0.148212656617361 -51.5886741027031 0.987770910422549 35.359104811179  0.987770910422546 35.359104811179  0.147137270515891 -58.0044569945878 
19                             0.0670612873718057 -58.5821699157479 0.995767468232622 15.89184683708   0.995767468232622 15.89184683708   0.0666317486990701 -88.8331220118749 
19.5                           0.0277582525460323 33.2373617659099 0.997550025856157 -3.57118569762397 0.99755002585616 -3.571185697624  0.0270536358015306 138.377570498965 
20                             0.0924626647708098 54.0955999030481 0.99373743572593 -22.8866886945732 0.993737435725932 -22.8866886945733 0.0924187724546894 79.6774173152218 
20.5                           0.150718228324616 42.5530581357228 0.98655389164795 -41.9248044371983 0.986553891647949 -41.9248044371984 0.150656404833543 53.3073688537286 
21                             0.19291745208774 28.197913069545  0.979160198890366 -60.6716788150603 0.979160198890364 -60.6716788150603 0.192944374850254 30.5351392817776 
21.5                           0.217700585250551 13.3994532112088 0.973764948282619 -79.201850760495 0.973764948282617 -79.2018507604948 0.217962716940343 8.78136815077471 
22                             0.224753576138233 -1.48613116248438 0.971847551482784 -97.6059371705356 0.971847551482783 -97.6059371705354 0.224995545748314 -12.9266549997571 
22.5                           0.213258930829467 -16.417136983917 0.974643628449414 -116.01972133613 0.974643628449414 -116.01972133613 0.213129667013951 -35.2686622615509 
23                             0.182017436298707 -30.9722670669065 0.981761504336279 -134.645503113072 0.981761504336278 -134.645503113072 0.18156942543132 -58.9602358202991 
23.5                           0.132048634914706 -43.193999311837 0.989865636035402 -153.621171541769 0.989865636035401 -153.621171541769 0.131433609212794 -85.3289637676958 
24                             0.0705542233039583 -44.4562775698937 0.995163319489737 -172.873665179429 0.995163319489736 -172.873665179429 0.0694372193720465 -121.636524241155 
24.5                           0.040267527473355 22.5513834870221 0.996906954302174 167.714986285861 0.996906954302176 167.714986285861 0.0393450493714778 132.227697167148 
25                             0.109068423920279 51.9732673853883 0.993894343587892 148.098939802329 0.993894343587897 148.098939802329 0.109108579835986 66.5265801107946 
25.5                           0.198142932462245 43.3666988383519 0.981284197785306 128.365386788905 0.981284197785312 128.365386788905 0.197981194165261 36.0358466610731 
26                             0.285725281501731 28.581312101477  0.957656109461169 108.930131176319 0.957656109461171 108.930131176319 0.285429701248146 10.4303384110073 
26.5                           0.361681712299776 12.4118303464435 0.928936076682058 90.1242244799911 0.928936076682054 90.1242244799911 0.361682411183661 -13.0564148469596 
27                             0.42206134495368 -3.62476000433769 0.901906750408307 71.8926888596643 0.901906750408298 71.8926888596644 0.42255779758655 -34.8111966205902 
27.5                           0.468381005437776 -19.0062128138972 0.878549355458356 54.0263356398713 0.878549355458344 54.0263356398716 0.468251235994999 -54.8703966642756 
28                             0.505607637602227 -33.9136422533039 0.858914020537846 36.556984553585  0.858914020537843 36.5569845535852 0.504642806107816 -73.3633284529046 
28.5                           0.534755507318753 -49.1030100814783 0.847922755411944 19.5768034060593 0.847922755411951 19.5768034060589 0.538661010494281 -91.4026777845694 
29                             0.548180052581986 -64.8219202219869 0.849443222035002 2.66465433699005 0.849443222035018 2.66465433698896 0.561546991422343 -110.362219398021 
29.5                           0.540647891949685 -80.2770786201696 0.854824723848513 -14.4793099712093 0.85482472384853 -14.4793099712105 0.554577293550319 -129.673745956806 
30                             0.517333467144482 -94.6658254810966 0.853077717694282 -31.1132329431079 0.853077717694283 -31.1132329431079 0.516837148294142 -147.407223206094 
