! Touchstone file exported from HFSS 2021.2.0
!        File:           C:/Users/pmena/AData/NRAO/Modelling/HFSS/Artificial/Artificial.aedt
!        Generated:      4:21:09 PM  Feb 23, 2023
!        Design:         03_Artificial_UnitCell
!        Project:        Artificial
!        Setup:          Setup1
!        Solution:       Sweep
!
! Variables:
!        $Tc = 14.7
!        $l0NTN = 314.642654451045nm
!        $l0nm = 314.642654451045
!        $rn = 132
!        L1 = 440um
!        L2 = 884um
!        L3 = 804um
!        L4 = 372um
!        N1 = 110
!        N2 = 221
!        N3 = 201
!        N4 = 93
!        Wl = 35um
!        Wu = 19um
!        Zp = 50ohm
!        g = 1um
!        ha = 140um
!        hd = 140um
!        hp = 70um
!        lH = 1um
!        lL = 1um
!        la = 3140um
!        ld = 3140um
!        lext = 0
!        ll1 = 160um
!        ll2 = 160um
!        ll3 = 320um
!        ls = 3140um
!        lu = 4um
!        nn1 = 40
!        nn2 = 40
!        nn3 = 80
!        nu = 30
!        ts = 60nm
!        wH = 1um
!        wa = 280um
!        wd = 280um
!        wp = 140um
!
# GHz S MA R 50.000000
! Terminal data exported
! Port[1] = 1
! Port[2] = 2
0.5                            0.125616114974593 61.4101195575518 0.992075950389545 -27.6853325965344 0.992075950618261 -27.6853325965384 0.125616048773799 63.2177442207551 
! Gamma         0                51.1435987356256 1.85302408401233E-31 51.1534223326366 
! Port Impedance         50               0                50               0                
1                              0.220503951512041 36.6631969785008 0.975356598034322 -54.6397396554376 0.975356602041598 -54.6397399468685 0.220523596431134 34.0590041855546 
! Gamma         0                102.287198811572 5.50557999176522E-23 102.306846065453 
! Port Impedance         50               0                50               0                
1.5                            0.267381553614422 12.4362376757073 0.963557081464024 -80.7686301410862 0.963557083220229 -80.7686302719913 0.267387842089149 6.02173221457018 
! Gamma         0                153.43080145176  4.83726319186478E-23 153.46027242429  
! Port Impedance         50               0                50               0                
2                              0.261655537799657 -10.8760257044477 0.965129686137608 -106.622739530667 0.965129689107816 -106.622739149203 0.261647166824682 -22.3632765979002 
! Gamma         0                204.57440795378  0                204.613702949185 
! Port Impedance         50               0                50               0                
2.5                            0.20617495315583 -32.6266411981345 0.978443407708114 -132.909929790165 0.978443411027344 -132.909929509882 0.206168300809621 -53.1799235594506 
! Gamma         0                255.718019610872 0                255.767135117731 
! Port Impedance         50               0                50               0                
3                              0.113734404150576 -47.1065723301251 0.993425092505968 -159.992901437588 0.993425080688316 -159.992901599887 0.11373009531408 -92.8731315269308 
! Gamma         0                306.861637731486 4.34371410586067E-22 306.920578883908 
! Port Impedance         50               0                50               0                
3.5                            0.047233762800017 6.16586051050746 0.998752767277714 172.41106861124  0.998752749265283 172.411068770272 0.0471530424114256 158.644027643554 
! Gamma         0                358.005263572353 0                358.074028676893 
! Port Impedance         50               0                50               0                
4                              0.121118659233884 35.6167246169611 0.992470905004867 144.980315074341 0.992470906817456 144.980314890547 0.121080897249265 74.3067025246352 
! Gamma         0                409.148897970377 3.23686128381135E-21 409.227487092676 
! Port Impedance         50               0                50               0                
4.5                            0.180883114490484 19.4600002989669 0.983311007531462 118.129650666735 0.983311004510927 118.129650898819 0.18085415868895 36.7798170714974 
! Gamma         0                460.292543274099 1.19859711930255E-21 460.380956226556 
! Port Impedance         50               0                50               0                
5                              0.192936630249238 -0.778995158208535 0.980969575438999 91.6557680776396 0.980969575062107 91.6557680776148 0.192910706366018 4.07852121513165 
! Gamma         0                511.436200002824 0                511.53443688587  
! Port Impedance         50               0                50               0                
5.5                            0.156127157308418 -19.1593665356262 0.987449187341145 65.00109661826   0.987449187277551 65.0010964920663 0.15609579795256 -30.8335250399458 
! Gamma         0                562.579869812359 0                562.687929464112 
! Port Impedance         50               0                50               0                
6                              0.08757137650811 -22.7714299275784 0.99582030898468 37.7842448589412 0.995820314298779 37.7842451607402 0.0875042622829689 -81.6207173038482 
! Gamma         0                613.723552992478 1.02615935439061E-20 613.841437513786 
! Port Impedance         50               0                50               0                
6.5                            0.07320820582389 27.2120799414042 0.99692582952088 10.1753720722952 0.996925853999757 10.1753721861624 0.0730902023432376 173.088529948779 
! Gamma         0                664.867252236368 2.50162603021585E-20 664.994961483424 
! Port Impedance         50               0                50               0                
7                              0.140454105552979 31.2060746601639 0.989641283115688 -17.2803253433866 0.989641294762193 -17.2803257516132 0.140373690684068 114.185750705101 
! Gamma         0                716.010968105039 0                716.14850084992  
! Port Impedance         50               0                50               0                
7.5                            0.181916024468657 8.40543051063563 0.982820248484497 -44.3260705780994 0.982820246371256 -44.3260703710785 0.181873930934689 82.9235963464687 
! Gamma         0                767.154702201466 1.28170983411654E-21 767.302058800498 
! Port Impedance         50               0                50               0                
8                              0.16990027587983 -26.5125727391876 0.98490353600965 -71.4144829493749 0.984903535861377 -71.4144827893675 0.169919450424656 63.6980862992279 
! Gamma         0                818.298455236839 4.5738970577648E-21 818.455636158548 
! Port Impedance         50               0                50               0                
8.5                            0.123810512519202 -90.0480646944217 0.991675605499691 -99.4128855983932 0.991675602402751 -99.4128860960738 0.123985534284824 71.2614686814723 
! Gamma         0                869.442228946401 7.04569430023373E-21 869.609234183736 
! Port Impedance         50               0                50               0                
9                              0.185366146748366 178.83765270722  0.981969238067723 -128.669789761276 0.981969229360848 -128.669790380375 0.185624038168041 103.765667252688 
! Gamma         0                920.586024493728 8.28684520968336E-21 920.762854148991 
! Port Impedance         50               0                50               0                
9.5                            0.353058138433976 127.034690519243 0.934802467914771 -158.049929043623 0.934802463740954 -158.049929201578 0.353251006536539 96.8070605509296 
! Gamma         0                971.7298430898   5.32831600974948E-21 971.916497318327 
! Port Impedance         50               0                50               0                
10                             0.509490280984479 91.7678485574067 0.859530754509641 174.497060594188 0.859530762253486 174.497060672585 0.509622296248537 77.1733676285882 
! Gamma         0                1022.87368658945 0                1023.07016487034 
! Port Impedance         50               0                50               0                
10.5                           0.613971075999158 63.5460556107265 0.788308137054358 150.02968631508  0.788308148547899 150.02968608596  0.614067902630446 56.4824716050408 
! Gamma         0                1074.01755516141 0                1074.22385950138 
! Port Impedance         50               0                50               0                
11                             0.665800283022881 39.2886952294014 0.745130594772315 128.040524219528 0.74513059840069 128.040523958407 0.665883687561859 36.7935534647209 
! Gamma         0                1125.16145083243 0                1125.37757942304 
! Port Impedance         50               0                50               0                
11.5                           0.671234611301792 16.7297543941749 0.740202874757855 107.192801107169 0.740202873027741 107.192801416072 0.671263786479527 17.6680086211855 
! Gamma         0                1176.30537473445 6.46066638355157E-21 1176.53132825963 
! Port Impedance         50               0                50               0                
12                             0.627199739770381 -6.34738910129022 0.77776319109221 85.7790175575298 0.777763191486213 85.7790180754881 0.627178405303951 -2.06029435169085 
! Gamma         0                1227.44932812471 1.21336093279449E-20 1227.68510675992 
! Port Impedance         50               0                50               0                
12.5                           0.514850802587852 -32.5945341281904 0.856068862978761 61.8149685387613 0.856068864200087 61.8149687147777 0.51489576478726 -23.673188845135 
! Gamma         0                1278.5933122672  1.20030911171792E-20 1278.83891617733 
! Port Impedance         50               0                50               0                
13                             0.306023791261439 -66.3570268899955 0.950655306528118 33.5453093496429 0.950655305472037 33.5453093129625 0.306257164729082 -46.2937332166729 
! Gamma         0                1329.73732842326 0                1329.99275790322 
! Port Impedance         50               0                50               0                
13.5                           0.0570295160842668 -176.113737848244 0.996942333214478 1.53148966754601 0.996942333447471 1.53148966396169 0.0585179290932183 -0.708812451621751 
! Gamma         0                1380.88137764391 0                1381.1466323068  
! Port Impedance         50               0                50               0                
14                             0.284693090178048 70.156180483905  0.957173009899724 -29.9267758649112 0.957173012068239 -29.9267759050387 0.285000379074683 49.7289707399775 
! Gamma         0                1432.02546189127 1.65628454901671E-18 1432.30054276184 
! Port Impedance         50               0                50               0                
14.5                           0.460758452924333 37.1802634942639 0.886208286656151 -57.3949267882825 0.88620828513526 -57.3949267276451 0.460922228933444 27.9498650624946 
! Gamma         0                1483.16958167684 0                1483.45448761118 
! Port Impedance         50               0                50               0                
15                             0.535928128333311 10.9975090021073 0.842951156620471 -81.4426137969218 0.842951152173435 -81.4426133383293 0.536184850349529 6.1625393091538  
! Gamma         0                1534.31373853272 0                1534.60847044097 
! Port Impedance         50               0                50               0                
15.5                           0.528282803679143 -13.4833235480878 0.847527728708104 -104.419169614477 0.847527726937699 -104.419169101082 0.528578321494592 -15.2388483207673 
! Gamma         0                1585.45793371412 0                1585.76249169777 
! Port Impedance         50               0                50               0                
16                             0.434934701960275 -39.9079760591113 0.899022529402021 -128.957614378642 0.899022529013543 -128.957614460907 0.434997019086181 -37.8781900095646 
! Gamma         0                1636.60216849312 2.9542880042488E-23 1636.91655266017 
! Port Impedance         50               0                50               0                
16.5                           0.234413497893914 -73.4411352665228 0.970610788128311 -157.36225406677 0.970610786404499 -157.362254330875 0.23456956511002 -60.9252158512035 
! Gamma         0                1687.74644498976 4.9876040799978E-23 1688.07065458548 
! Port Impedance         50               0                50               0                
17                             0.0768697768557416 113.390375838485 0.995341173932551 170.494634937657 0.995341186415681 170.494635326    0.077722351096054 46.7495474766264 
! Gamma         0                1738.89076149509 0                1739.22479872502 
! Port Impedance         50               0                50               0                
17.5                           0.361249609108918 57.2295630803522 0.930740481817307 138.669901678142 0.930740481891894 138.66990167821  0.361465766450975 39.8448563566859 
! Gamma         0                1790.03512249675 0                1790.37898632628 
! Port Impedance         50               0                50               0                
18                             0.554020168996912 27.4626288680065 0.830871209279763 111.141669300107 0.83087120934377 111.141669301443 0.554116165953228 14.7036730984345 
! Gamma         0                1841.17952810765 0                1841.53321883208 
! Port Impedance         50               0                50               0                
18.5                           0.653360185765693 3.74134288605128 0.755481466840509 87.7818751567382 0.755481466857601 87.7818751518671 0.653383077717767 -8.22374682910092 
! Gamma         0                1892.32397929522 0                1892.68749716255 
! Port Impedance         50               0                50               0                
19                             0.690270412303835 -16.8600215639834 0.72200076927686 66.6592816035493 0.72200076910244 66.6592816008809 0.690219853936991 -29.8131531386534 
! Gamma         0                1943.46847762324 0                1943.84182282121 
! Port Impedance         50               0                50               0                
19.5                           0.682258259999512 -36.2483540773266 0.72952418083009 45.8556159069106 0.72952418067803 45.8556159282264 0.682105848329476 -51.9800611367574 
! Gamma         0                1994.61302421875 0                1994.99619699185 
! Port Impedance         50               0                50               0                
20                             0.632325962418644 -55.5538959131989 0.773056417064267 23.766613888234  0.773056417091594 23.7666139087643 0.632024031382988 -76.8021297684766 
! Gamma         0                2045.7576202389  0                2046.1506209034  
! Port Impedance         50               0                50               0                
20.5                           0.537157442564597 -74.7514438483548 0.841748846181227 -0.821661892762132 0.841748846066016 -0.821661890051657 0.536607824682425 -106.71949859337 
! Gamma         0                2096.90226756448 0                2097.30509578517 
! Port Impedance         50               0                50               0                
21                             0.405018514539233 -91.1612986366774 0.912518352849135 -28.2521059765048 0.912518352447259 -28.252105979007 0.40407127092273 -145.105665697338 
! Gamma         0                2148.04696623931 0                2148.45962286327 
! Port Impedance         50               0                50               0                
21.5                           0.283118528758061 -97.7279940717089 0.957299140882255 -57.4415443494548 0.957299140471548 -57.4415443494745 0.281730566554471 163.06671951695  
! Gamma         0                2199.19171826477 0                2199.61420338886 
! Port Impedance         50               0                50               0                
22                             0.239081887758373 -94.9435070587923 0.969239524980949 -86.5461724006186 0.969239524822434 -86.546172401291 0.237798555286439 101.891600640464 
! Gamma         0                2250.33652473082 0                2250.76883852623 
! Port Impedance         50               0                50               0                
22.5                           0.250103268606399 -103.637531209127 0.966467499806627 -114.609310577803 0.966467499966295 -114.609310570924 0.249418334498878 54.3998506595343 
! Gamma         0                2301.48138684419 0                2301.92352954226 
! Port Impedance         50               0                50               0                
23                             0.250747011191677 -128.601963344755 0.966272487513118 -141.951531514895 0.966272488355922 -141.9515314803  0.250626512469466 24.7237089620519 
! Gamma         0                2352.62630581758 0                2353.07827764358 
! Port Impedance         50               0                50               0                
23.5                           0.230131916334141 -167.473250045392 0.971280226244812 -169.28060871737 0.971280228452536 -169.280608683404 0.230585995280273 8.97333901657264 
! Gamma         0                2403.77128286225 0                2404.23308404653 
! Port Impedance         50               0                50               0                
24                             0.216715961706617 140.865864917304 0.974289153754295 163.115933282547 0.974289156517321 163.115933243992 0.217568142897885 5.37160459508696 
! Gamma         0                2454.91631918614 0                2455.38794995009 
! Port Impedance         50               0                50               0                
24.5                           0.237463047204929 86.3435822909515 0.969454675008931 135.531369842738 0.969454676559846 135.531369763516 0.23831552014582 4.63986198396073 
! Gamma         0                2506.0614159912  0                2506.54287658565 
! Port Impedance         50               0                50               0                
25                             0.274461940749673 39.2536908225394 0.959675568755011 108.407459787079 0.959675569044554 108.407459750544 0.275141425903551 -2.53133202701805 
! Gamma         0                2557.20657444074 0                2557.69786514726 
! Port Impedance         50               0                50               0                
25.5                           0.296357077318906 -1.68414865827911 0.953195913657727 81.8050127773377 0.953195913704018 81.805012791339  0.296881978736901 -14.7611465744821 
! Gamma         0                2608.35179597643 0                2608.85291684025 
! Port Impedance         50               0                50               0                
26                             0.28989909971855 -40.9725811145624 0.955200951965503 55.3553317684693 0.955200952103479 55.3553317748713 0.290363513190667 -28.3150517335282 
! Gamma         0                2659.49708141363 0                2660.00803284835 
! Port Impedance         50               0                50               0                
26.5                           0.259154751207805 -82.5742976260029 0.963971432147365 28.6135902452607 0.963971431763787 28.6135902276812 0.259667430002903 -40.1393888309122 
! Gamma         0                2710.6424321621  0                2711.16321444401 
! Port Impedance         50               0                50               0                
