! Touchstone file exported from HFSS 2021.2.0
!        File:           C:/Users/pmena/AData/NRAO/Modelling/HFSS/Artificial/Artificial.aedt
!        Generated:      11:07:24 AM  Mar 20, 2023
!        Design:         03_Artificial_UnitCell-Xs2
!        Project:        Artificial
!        Setup:          Setup1
!        Solution:       Sweep
!
! Variables:
!        $Tc = 14.7
!        $l0NTN = 314.642654451045nm
!        $l0nm = 314.642654451045
!        $rn = 132
!        L1 = 440um
!        L2 = 884um
!        L3 = 804um
!        L4 = 372um
!        N1 = 110
!        N2 = 221
!        N3 = 201
!        N4 = 93
!        Wl = 35um
!        Wu = 19um
!        Zp = 50ohm
!        g = 1um
!        ha = 140um
!        hd = 140um
!        hp = 70um
!        lH = 1um
!        lL = 1um
!        la = 3140um
!        ld = 3140um
!        lext = 0
!        ll1 = 160um
!        ll2 = 160um
!        ll3 = 320um
!        ls = 3140um
!        lu = 4um
!        nn1 = 40
!        nn2 = 40
!        nn3 = 80
!        nu = 30
!        ts = 60nm
!        wH = 1um
!        wa = 280um
!        wd = 280um
!        wp = 140um
!
# GHz S MA R 50.000000
! Terminal data exported
! Port[1] = 1
! Port[2] = 2
0.5                            0.34436177680199 51.2453917455156 0.938832645161127 -40.2594657969674 0.938832645161127 -40.2594657969674 0.344361922610054 48.2346842720318 
1                              0.51219052198657 17.6719895420481 0.85885763305288 -73.9826447572169 0.858857633052882 -73.9826447572171 0.512190749137247 14.3614605148237 
1.5                            0.51738895561248 -11.8467694017515 0.855720631181182 -104.413092377538 0.855720631181182 -104.413092377538 0.517389146594981 -16.9797294871606 
2                              0.365881339231962 -42.4748859880056 0.930606157136963 -137.676143299045 0.930606157136964 -137.676143299045 0.365878844725166 -52.8717024858832 
2.5                            0.0594415261597273 -46.0600673483577 0.998138503516089 -177.126955121878 0.99813850351609 -177.126955121878 0.0593798381129674 -128.121264122482 
3                              0.287435041882141 46.17613404424   0.957672027268395 142.753766903873 0.957672027268395 142.753766903873 0.287414700885617 59.3070824750464 
3.5                            0.449017107281465 15.8950448266777 0.893366939763598 108.155643140903 0.8933669397636  108.155643140903 0.449003622621116 20.4060595381411 
4                              0.438449216782696 -13.3843923337596 0.898561090121835 76.146579919294  0.898561090121836 76.146579919294  0.438433893289942 -14.3187856115314 
4.5                            0.257921689836979 -41.7922726497469 0.965908707191979 40.8431561765512 0.965908707191978 40.8431561765512 0.257878640508283 -56.4809997729728 
5                              0.0957534838347513 47.1932018274056 0.995081455290712 0.582119210782492 0.995081455290712 0.582119210782491 0.0955588828450222 133.830882181251 
5.5                            0.354197970490448 37.6891456880496 0.934808683144434 -37.9751726830926 0.934808683144433 -37.9751726830927 0.354144506281713 66.3195886738599 
6                              0.443724117902016 5.32535306212373 0.895762300149475 -71.6338602527668 0.895762300149478 -71.6338602527665 0.443709208105783 31.4002341405216 
6.5                            0.33383176090824 -35.1357526157949 0.942136546440297 -106.041802924653 0.942136546440296 -106.041802924654 0.333900199728362 3.09751443986656 
7                              0.11936932921469 -177.798726737352 0.992193110267448 -148.294013321007 0.992193110267461 -148.294013321007 0.119948824972755 61.0784749392803 
7.5                            0.507759343225487 85.3020446938123 0.860752732168399 167.534755714068 0.860752732168444 167.534755714068 0.507907704942656 69.6890804947016 
8                              0.728294757396844 47.6310020047806 0.708134529503774 134.318200641477 0.708134529503773 134.318200641477 0.712830227836281 43.3334757926228 
8.5                            0.799802319859117 20.2199116812518 0.611039812647561 109.077515810554 0.611039812647561 109.077515810554 0.796334501160851 19.9990360774749 
9                              0.781891446271327 -3.90597798207158 0.622713669669133 87.5693693409558 0.622713669669134 87.5693693409558 0.78163580511026 -1.70969338097475 
9.5                            0.651308299689595 -33.9313512048094 0.766330019051399 60.153624882613  0.7663300190514  60.1536248826131 0.647294237469067 -27.4262111631466 
10                             0.225692374727768 -87.9994819593647 0.974156718808072 17.4489571179653 0.974156718808074 17.4489571179654 0.22481337055279 -57.1681606582816 
10.5                           0.395589176816086 64.9222466014955 0.917270012947497 -32.7741046144345 0.917270012947499 -32.7741046144344 0.395443829678884 49.34296853843   
11                             0.669222925886575 24.5239262549832 0.741923785234342 -68.194050295407 0.741923785234343 -68.194050295407 0.669417247075692 18.9715616794874 
11.5                           0.719919388976353 -3.15167489730381 0.69297792154182 -94.3034881577874 0.692977921541819 -94.3034881577874 0.719983787267586 -5.41313046307657 
12                             0.621928271833992 -32.2532756334303 0.781796352913988 -121.888038009579 0.781796352913988 -121.888038009579 0.622031438986589 -31.4011008234726 
12.5                           0.240298311905319 -79.6013084636243 0.96951497719734 -162.35168554507 0.96951497719734 -162.35168554507 0.240181798692571 -64.7519036290072 
13                             0.398233487773362 63.6900081114692 0.917665788966546 146.231752544078 0.917665788966545 146.231752544078 0.397007300512509 48.9633556681096 
13.5                           0.720449689589899 23.2980043061602 0.695717624042609 108.730069543505 0.695717624042609 108.730069543505 0.71941910849274 14.7945374750465 
14                             0.810040393495262 -2.07109260921182 0.585139623978976 83.8041987728969 0.585139623978978 83.804198772897  0.810042164984354 -10.3866406147552 
14.5                           0.810630611541143 -23.1340490326932 0.584216420671737 61.7061572776432 0.584216420671736 61.7061572776432 0.810249869127126 -33.5053972727601 
15                             0.737340990342227 -45.3219472425277 0.677672389475146 36.6900995776499 0.677672389475145 36.69009957765   0.739939949433989 -61.5698199548894 
15.5                           0.520851382686598 -69.802845130066 0.852255432494359 2.36960374786527 0.852255432494204 2.36960374785805 0.520204081979968 -105.259611871134 
16                             0.228555297452258 -63.3636763109364 0.972082525179676 -41.3327043626064 0.972082525179654 -41.3327043626064 0.226657931831504 160.876252658926 
16.5                           0.323278488020348 -37.5818223660988 0.944980367328182 -82.8620150875935 0.94498036732818 -82.8620150875935 0.322515817710941 51.7161387487343 
17                             0.375322038796159 -66.3396321650311 0.925550936294474 -118.686859119166 0.925550936294471 -118.686859119166 0.375283587670694 8.97055871827748 
17.5                           0.268792362355216 -121.370597500812 0.961661123026995 -155.20868904581 0.961661123026996 -155.20868904581 0.269499135521307 -8.90990666200348 
18                             0.236878596463189 126.033137566924 0.969867004443603 164.776632624999 0.969867004443603 164.776632624999 0.238106461086821 23.3562888272875 
18.5                           0.427745344600964 51.7738964261178 0.902312612562043 126.584749964345 0.902312612562047 126.584749964345 0.428312143833716 21.2640786171074 
19                             0.529683146378818 7.27450776653923 0.846746430243565 93.5444179901366 0.846746430243563 93.5444179901366 0.530006034542056 -0.227826571669017 
19.5                           0.505079042484694 -32.4823928758689 0.861644826142065 62.1412095840105 0.861644826142063 62.1412095840107 0.505383652510768 -23.1952328286851 
20                             0.354816600602423 -81.4991222772013 0.933404710021555 27.4408250620056 0.933404710021555 27.4408250620055 0.355362548973604 -43.4662194575171 
20.5                           0.17557180476403 -174.926422625125 0.982866525518197 -11.792471315761 0.982866525518196 -11.792471315761 0.176876403400731 -28.5533253095428 
21                             0.256989118753827 80.8328711471299 0.964906763321152 -50.585645082702 0.964906763321156 -50.5856450827018 0.257704256539619 -2.14706941949649 
21.5                           0.291843445123586 28.87326145407   0.95506250477548 -86.6289240787687 0.955062504775485 -86.6289240787689 0.292175243974048 -22.1383838238383 
22                             0.130866728663618 -17.7176657657935 0.989957386509546 -124.392370716624 0.989957386509551 -124.392370716624 0.13108426087934 -50.7164160149574 
22.5                           0.220351514546582 127.782746331282 0.973853190096024 -166.958869333195 0.973853190096027 -166.958869333195 0.220444693186115 77.9385978041891 
23                             0.54391279074303 85.4244582639412 0.837578434793441 152.945982680218 0.83757843479344 152.945982680218 0.543975379395798 40.3368201751539 
23.5                           0.702049103911987 55.1160882090479 0.710671558382705 121.263741626454 0.710671558382708 121.263741626455 0.702042689300992 7.35728652663101 
24                             0.744988201780081 32.4503052774971 0.665733048898343 94.5556655986124 0.665733048898347 94.5556655986125 0.744839671195124 -23.3385695670684 
24.5                           0.708433685487644 13.8534691784396 0.704509120534443 67.305414899947  0.704509120534442 67.305414899947  0.707981953173666 -59.1884885346768 
25                             0.592465913185693 0.350062194227724 0.804340739780488 34.3436703065163 0.804340739780484 34.3436703065164 0.591375543080547 -111.56250685144 
25.5                           0.486805435634608 1.03083605936967 0.872272056753111 -5.32253632179499 0.872272056753112 -5.32253632179508 0.485119619610364 168.356328406811 
26                             0.526238310964206 1.31709020345343 0.849140012006471 -43.7793816407846 0.849140012006481 -43.7793816407846 0.525055453395099 91.0832635672222 
26.5                           0.536481860115243 -13.081391242864 0.842701964317807 -77.3500318093174 0.842701964317802 -77.3500318093171 0.535855293950305 38.3957748411134 
27                             0.382359762214498 -35.8714154875763 0.922635438261345 -112.398698490943 0.922635438261362 -112.398698490941 0.3819565609291  -8.77025427117355 
27.5                           0.0768465575152315 41.7818674284843 0.995480311943912 -156.644640865118 0.995480311943986 -156.644640865114 0.0753869453514639 -175.887667022234 
28                             0.513942401393749 48.0929865319341 0.856320550135029 158.120193589746 0.856320550135038 158.120193589746 0.513658371678877 87.9631282104405 
28.5                           0.727051541751983 20.050082995939  0.68528911634727 125.291213692852 0.685289116347198 125.291213692848 0.726849097595473 50.4664904146906 
29                             0.784018484970271 -2.30836047318595 0.619495197077094 100.569963727497 0.619495197077119 100.569963727502 0.783885972252541 23.4418072038932 
29.5                           0.747799860101405 -24.3515494609966 0.662638176934793 76.6669661824475 0.662638176934795 76.6669661824467 0.747692516146146 -2.26019103191301 
30                             0.562849885016483 -51.9907067729097 0.825088419267943 45.797786584674  0.825088419267943 45.7977865846739 0.562689419981752 -36.2400814812094 
